write to 0x08 ack data: 0xF4 
read to 0x08 ack data: 0x00
write to 0x08 ack data: 0xF5 
read to 0x08 ack data: 0x3C
write to 0x08 ack data: 0xF4 
read to 0x08 ack data: 0x00
write to 0x08 ack data: 0xF4 0x01 
write to 0x08 ack data: 0xF4 
read to 0x08 ack data: 0x01
write to 0x08 ack data: 0xF4 0x00 
write to 0x08 ack data: 0xF5 
read to 0x08 ack data: 0x60
write to 0x08 ack data: 0xF4 
read to 0x08 ack data: 0x00
write to 0x08 ack data: 0xF4 0x01 
write to 0x08 ack data: 0xF4 
read to 0x08 ack data: 0x01
write to 0x08 ack data: 0xF4 0x00 
write to 0x08 ack data: 0xF5 
read to 0x08 ack data: 0x60
write to 0x08 ack data: 0xF4 
read to 0x08 ack data: 0x00
write to 0x08 ack data: 0xF4 0x01 
write to 0x08 ack data: 0xF4 
read to 0x08 ack data: 0x01
write to 0x08 ack data: 0xF4 0x00 
write to 0x39 ack data: 0x92 
read to 0x39 ack data: 0xE4
write to 0x39 ack data: 0x91 
read to 0x39 ack data: 0x61
write to 0x39 ack data: 0x9E 
read to 0x39 ack data: 0x01
write to 0x08 ack data: 0xF4 
read to 0x08 ack data: 0x00
write to 0x08 ack data: 0xF4 0x00 
write to 0x39 ack data: 0x80 0x00 0xFF 0x00 0x6A 0x00 0x00 0xFF 0xFF 0x00 0x00 0x00 0x00 0x00 0x80 0x00 0x00 0x03 0x00 0x00 0x00 0x00 0x00 0x00 0x00 0x00 0x00 0x00 0x00 0x00 0x00 0x00 0x14 
write to 0x39 ack data: 0xDD 0x10 
write to 0x39 ack data: 0x93 
read to 0x39 ack data: 0x00
write to 0x39 ack data: 0x93 0x00 
write to 0x39 ack data: 0xD6 0x40 
write to 0x39 ack data: 0x80 0x01 
write to 0x39 ack data: 0x80 0x0B 
write to 0x08 ack data: 0xF4 
read to 0x08 ack data: 0x00
write to 0x08 ack data: 0xF4 
read to 0x08 ack data: 0x00
write to 0x08 ack data: 0xF4 0x04 
write to 0x08 ack data: 0xF4 
read to 0x08 ack data: 0x04
write to 0x08 ack data: 0xF4 0x04 
write to 0x08 ack data: 0xF1 
read to 0x08 ack data: 0x62
write to 0x08 ack data: 0xF4 
read to 0x08 ack data: 0x04
write to 0x08 ack data: 0xF4 0x0C 
write to 0x10 ack data: 0x26 0x00 
write to 0x10 ack data: 0x13 0x70 
write to 0x10 ack data: 0x41 0xDF 
write to 0x10 ack data: 0x42 0x8E 
write to 0x10 ack data: 0x01 0x80 
write to 0x10 ack data: 0x04 0xF0 
write to 0x10 ack data: 0x00 0x20 
write to 0x10 ack data: 0x0E 0x45 
write to 0x08 ack data: 0xF5 
read to 0x08 ack data: 0x10
write to 0x08 ack data: 0xF4 
read to 0x08 ack data: 0x0C
write to 0x08 ack data: 0xF4 0x0D 
write to 0x08 ack data: 0xF4 
read to 0x08 ack data: 0x0D
write to 0x08 ack data: 0xF4 0x0C 
write to 0x08 ack data: 0xF5 
read to 0x08 ack data: 0x10
write to 0x39 ack data: 0x93 
read to 0x39 ack data: 0x90
write to 0x39 ack data: 0x93 0x90 
write to 0x08 ack data: 0xF4 
read to 0x08 ack data: 0x0C
write to 0x08 ack data: 0xF4 0x0D 
write to 0x08 ack data: 0xF4 
read to 0x08 ack data: 0x0D
write to 0x08 ack data: 0xF4 0x0C 
write to 0x39 ack data: 0x93 
read to 0x39 ack data: 0x00
write to 0x08 ack data: 0xF5 
read to 0x08 ack data: 0x60
write to 0x08 ack data: 0xF4 
read to 0x08 ack data: 0x0C
write to 0x08 ack data: 0xF4 0x0D 
write to 0x08 ack data: 0xF4 
read to 0x08 ack data: 0x0D
write to 0x08 ack data: 0xF4 0x0C 
write to 0x08 ack data: 0xF5 
read to 0x08 ack data: 0x60
write to 0x08 ack data: 0xF4 
read to 0x08 ack data: 0x0C
write to 0x08 ack data: 0xF4 0x0D 
write to 0x08 ack data: 0xF4 
read to 0x08 ack data: 0x0D
write to 0x08 ack data: 0xF4 0x0C 
write to 0x08 ack data: 0xF1 
read to 0x08 ack data: 0x62
write to 0x08 ack data: 0xF0 
read to 0x08 ack data: 0x1E
write to 0x08 ack data: 0xF0 
read to 0x08 ack data: 0x1E
write to 0x08 ack data: 0xF5 
read to 0x08 ack data: 0x10
write to 0x08 ack data: 0xF4 
read to 0x08 ack data: 0x0C
write to 0x08 ack data: 0xF4 0x0D 
write to 0x08 ack data: 0xF4 
read to 0x08 ack data: 0x0D
write to 0x08 ack data: 0xF4 0x0C 
write to 0x08 ack data: 0xF5 
read to 0x08 ack data: 0x10
write to 0x39 ack data: 0x93 
read to 0x39 ack data: 0x90
write to 0x39 ack data: 0x93 0x90 
write to 0x08 ack data: 0xF4 
read to 0x08 ack data: 0x0C
write to 0x08 ack data: 0xF4 0x0D 
write to 0x08 ack data: 0xF4 
read to 0x08 ack data: 0x0D
write to 0x08 ack data: 0xF4 0x0C 
write to 0x39 ack data: 0x93 
read to 0x39 ack data: 0x00
write to 0x08 ack data: 0xF5 
read to 0x08 ack data: 0x60
write to 0x08 ack data: 0xF4 
read to 0x08 ack data: 0x0C
write to 0x08 ack data: 0xF4 0x0D 
write to 0x08 ack data: 0xF4 
read to 0x08 ack data: 0x0D
write to 0x08 ack data: 0xF4 0x0C 
write to 0x08 ack data: 0xF5 
read to 0x08 ack data: 0x60
write to 0x08 ack data: 0xF4 
read to 0x08 ack data: 0x0C
write to 0x08 ack data: 0xF4 0x0D 
write to 0x08 ack data: 0xF4 
read to 0x08 ack data: 0x0D
write to 0x08 ack data: 0xF4 0x0C 
write to 0x08 ack data: 0xF1 
read to 0x08 ack data: 0x62
write to 0x08 ack data: 0xF5 
read to 0x08 ack data: 0x10
write to 0x08 ack data: 0xF4 
read to 0x08 ack data: 0x0C
write to 0x08 ack data: 0xF4 0x0D 
write to 0x08 ack data: 0xF4 
read to 0x08 ack data: 0x0D
write to 0x08 ack data: 0xF4 0x0C 
write to 0x08 ack data: 0xF5 
read to 0x08 ack data: 0x10
write to 0x39 ack data: 0x93 
read to 0x39 ack data: 0x90
write to 0x39 ack data: 0x93 0x90 
write to 0x08 ack data: 0xF4 
read to 0x08 ack data: 0x0C
write to 0x08 ack data: 0xF4 0x0D 
write to 0x08 ack data: 0xF4 
read to 0x08 ack data: 0x0D
write to 0x08 ack data: 0xF4 0x0C 
write to 0x39 ack data: 0x93 
read to 0x39 ack data: 0x00
write to 0x08 ack data: 0xF5 
read to 0x08 ack data: 0x60
write to 0x08 ack data: 0xF4 
read to 0x08 ack data: 0x0C
write to 0x08 ack data: 0xF4 0x0D 
write to 0x08 ack data: 0xF4 
read to 0x08 ack data: 0x0D
write to 0x08 ack data: 0xF4 0x0C 
write to 0x08 ack data: 0xF5 
read to 0x08 ack data: 0x60
write to 0x08 ack data: 0xF4 
read to 0x08 ack data: 0x0C
write to 0x08 ack data: 0xF4 0x0D 
write to 0x08 ack data: 0xF4 
read to 0x08 ack data: 0x0D
write to 0x08 ack data: 0xF4 0x0C 
write to 0x08 ack data: 0xF1 
read to 0x08 ack data: 0x62
write to 0x08 ack data: 0xF5 
read to 0x08 ack data: 0x10
write to 0x08 ack data: 0xF4 
read to 0x08 ack data: 0x0C
write to 0x08 ack data: 0xF4 0x0D 
write to 0x08 ack data: 0xF4 
read to 0x08 ack data: 0x0D
write to 0x08 ack data: 0xF4 0x0C 
write to 0x08 ack data: 0xF5 
read to 0x08 ack data: 0x10
write to 0x39 ack data: 0x93 
read to 0x39 ack data: 0x90
write to 0x39 ack data: 0x93 0x90 
write to 0x08 ack data: 0xF4 
read to 0x08 ack data: 0x0C
write to 0x08 ack data: 0xF4 0x0D 
write to 0x08 ack data: 0xF4 
read to 0x08 ack data: 0x0D
write to 0x08 ack data: 0xF4 0x0C 
write to 0x39 ack data: 0x93 
read to 0x39 ack data: 0x00
write to 0x08 ack data: 0xF5 
read to 0x08 ack data: 0x60
write to 0x08 ack data: 0xF4 
read to 0x08 ack data: 0x0C
write to 0x08 ack data: 0xF4 0x0D 
write to 0x08 ack data: 0xF4 
read to 0x08 ack data: 0x0D
write to 0x08 ack data: 0xF4 0x0C 
write to 0x08 ack data: 0xF5 
read to 0x08 ack data: 0x60
write to 0x08 ack data: 0xF4 
read to 0x08 ack data: 0x0C
write to 0x08 ack data: 0xF4 0x0D 
write to 0x08 ack data: 0xF4 
read to 0x08 ack data: 0x0D
write to 0x08 ack data: 0xF4 0x0C 
write to 0x08 ack data: 0xF1 
read to 0x08 ack data: 0x62
write to 0x08 ack data: 0xF5 
read to 0x08 ack data: 0x10
write to 0x08 ack data: 0xF4 
read to 0x08 ack data: 0x0C
write to 0x08 ack data: 0xF4 0x0D 
write to 0x08 ack data: 0xF4 
read to 0x08 ack data: 0x0D
write to 0x08 ack data: 0xF4 0x0C 
write to 0x08 ack data: 0xF5 
read to 0x08 ack data: 0x10
write to 0x39 ack data: 0x93 
read to 0x39 ack data: 0x90
write to 0x39 ack data: 0x93 0x90 
write to 0x08 ack data: 0xF4 
read to 0x08 ack data: 0x0C
write to 0x08 ack data: 0xF4 0x0D 
write to 0x08 ack data: 0xF4 
read to 0x08 ack data: 0x0D
write to 0x08 ack data: 0xF4 0x0C 
write to 0x39 ack data: 0x93 
read to 0x39 ack data: 0x00
write to 0x08 ack data: 0xF5 
read to 0x08 ack data: 0x60
write to 0x08 ack data: 0xF4 
read to 0x08 ack data: 0x0C
write to 0x08 ack data: 0xF4 0x0D 
write to 0x08 ack data: 0xF4 
read to 0x08 ack data: 0x0D
write to 0x08 ack data: 0xF4 0x0C 
write to 0x08 ack data: 0xF5 
read to 0x08 ack data: 0x60
write to 0x08 ack data: 0xF4 
read to 0x08 ack data: 0x0C
write to 0x08 ack data: 0xF4 0x0D 
write to 0x08 ack data: 0xF4 
read to 0x08 ack data: 0x0D
write to 0x08 ack data: 0xF4 0x0C 
write to 0x08 ack data: 0xF1 
read to 0x08 ack data: 0x62
write to 0x08 ack data: 0xF5 
read to 0x08 ack data: 0x10
write to 0x08 ack data: 0xF4 
read to 0x08 ack data: 0x0C
write to 0x08 ack data: 0xF4 0x0D 
write to 0x08 ack data: 0xF4 
read to 0x08 ack data: 0x0D
write to 0x08 ack data: 0xF4 0x0C 
write to 0x08 ack data: 0xF5 
read to 0x08 ack data: 0x10
write to 0x39 ack data: 0x93 
read to 0x39 ack data: 0x90
write to 0x39 ack data: 0x93 0x90 
write to 0x08 ack data: 0xF4 
read to 0x08 ack data: 0x0C
write to 0x08 ack data: 0xF4 0x0D 
write to 0x08 ack data: 0xF4 
read to 0x08 ack data: 0x0D
write to 0x08 ack data: 0xF4 0x0C 
write to 0x39 ack data: 0x93 
read to 0x39 ack data: 0x00
write to 0x08 ack data: 0xF5 
read to 0x08 ack data: 0x60
write to 0x08 ack data: 0xF4 
read to 0x08 ack data: 0x0C
write to 0x08 ack data: 0xF4 0x0D 
write to 0x08 ack data: 0xF4 
read to 0x08 ack data: 0x0D
write to 0x08 ack data: 0xF4 0x0C 
write to 0x08 ack data: 0xF5 
read to 0x08 ack data: 0x60
write to 0x08 ack data: 0xF4 
read to 0x08 ack data: 0x0C
write to 0x08 ack data: 0xF4 0x0D 
write to 0x08 ack data: 0xF4 
read to 0x08 ack data: 0x0D
write to 0x08 ack data: 0xF4 0x0C 
write to 0x08 ack data: 0xF1 
read to 0x08 ack data: 0x62
write to 0x08 ack data: 0xF5 
read to 0x08 ack data: 0x10
write to 0x08 ack data: 0xF4 
read to 0x08 ack data: 0x0C
write to 0x08 ack data: 0xF4 0x0D 
write to 0x08 ack data: 0xF4 
read to 0x08 ack data: 0x0D
write to 0x08 ack data: 0xF4 0x0C 
write to 0x08 ack data: 0xF5 
read to 0x08 ack data: 0x10
write to 0x39 ack data: 0x93 
read to 0x39 ack data: 0x90
write to 0x39 ack data: 0x93 0x90 
write to 0x08 ack data: 0xF4 
read to 0x08 ack data: 0x0C
write to 0x08 ack data: 0xF4 0x0D 
write to 0x08 ack data: 0xF4 
read to 0x08 ack data: 0x0D
write to 0x08 ack data: 0xF4 0x0C 
write to 0x39 ack data: 0x93 
read to 0x39 ack data: 0x00
write to 0x08 ack data: 0xF5 
read to 0x08 ack data: 0x60
write to 0x08 ack data: 0xF4 
read to 0x08 ack data: 0x0C
write to 0x08 ack data: 0xF4 0x0D 
write to 0x08 ack data: 0xF4 
read to 0x08 ack data: 0x0D
write to 0x08 ack data: 0xF4 0x0C 
write to 0x08 ack data: 0xF5 
read to 0x08 ack data: 0x60
write to 0x08 ack data: 0xF4 
read to 0x08 ack data: 0x0C
write to 0x08 ack data: 0xF4 0x0D 
write to 0x08 ack data: 0xF4 
read to 0x08 ack data: 0x0D
write to 0x08 ack data: 0xF4 0x0C 
write to 0x08 ack data: 0xF1 
read to 0x08 ack data: 0x62
write to 0x08 ack data: 0xF5 
read to 0x08 ack data: 0x10
write to 0x08 ack data: 0xF4 
read to 0x08 ack data: 0x0C
write to 0x08 ack data: 0xF4 0x0D 
write to 0x08 ack data: 0xF4 
read to 0x08 ack data: 0x0D
write to 0x08 ack data: 0xF4 0x0C 
write to 0x08 ack data: 0xF5 
read to 0x08 ack data: 0x10
write to 0x39 ack data: 0x93 
read to 0x39 ack data: 0x90
write to 0x39 ack data: 0x93 0x90 
write to 0x08 ack data: 0xF4 
read to 0x08 ack data: 0x0C
write to 0x08 ack data: 0xF4 0x0D 
write to 0x08 ack data: 0xF4 
read to 0x08 ack data: 0x0D
write to 0x08 ack data: 0xF4 0x0C 
write to 0x39 ack data: 0x93 
read to 0x39 ack data: 0x00
write to 0x08 ack data: 0xF5 
read to 0x08 ack data: 0x60
write to 0x08 ack data: 0xF4 
read to 0x08 ack data: 0x0C
write to 0x08 ack data: 0xF4 0x0D 
write to 0x08 ack data: 0xF4 
read to 0x08 ack data: 0x0D
write to 0x08 ack data: 0xF4 0x0C 
write to 0x08 ack data: 0xF5 
read to 0x08 ack data: 0x60
write to 0x08 ack data: 0xF4 
read to 0x08 ack data: 0x0C
write to 0x08 ack data: 0xF4 0x0D 
write to 0x08 ack data: 0xF4 
read to 0x08 ack data: 0x0D
write to 0x08 ack data: 0xF4 0x0C 
write to 0x08 ack data: 0xF1 
read to 0x08 ack data: 0x62
write to 0x08 ack data: 0xF5 
read to 0x08 ack data: 0x10
write to 0x08 ack data: 0xF4 
read to 0x08 ack data: 0x0C
write to 0x08 ack data: 0xF4 0x0D 
write to 0x08 ack data: 0xF4 
read to 0x08 ack data: 0x0D
write to 0x08 ack data: 0xF4 0x0C 
write to 0x08 ack data: 0xF5 
read to 0x08 ack data: 0x10
write to 0x39 ack data: 0x93 
read to 0x39 ack data: 0x90
write to 0x39 ack data: 0x93 0x90 
write to 0x08 ack data: 0xF4 
read to 0x08 ack data: 0x0C
write to 0x08 ack data: 0xF4 0x0D 
write to 0x08 ack data: 0xF4 
read to 0x08 ack data: 0x0D
write to 0x08 ack data: 0xF4 0x0C 
write to 0x39 ack data: 0x93 
read to 0x39 ack data: 0x00
write to 0x08 ack data: 0xF5 
read to 0x08 ack data: 0x60
write to 0x08 ack data: 0xF4 
read to 0x08 ack data: 0x0C
write to 0x08 ack data: 0xF4 0x0D 
write to 0x08 ack data: 0xF4 
read to 0x08 ack data: 0x0D
write to 0x08 ack data: 0xF4 0x0C 
write to 0x08 ack data: 0xF5 
read to 0x08 ack data: 0x60
write to 0x08 ack data: 0xF4 
read to 0x08 ack data: 0x0C
write to 0x08 ack data: 0xF4 0x0D 
write to 0x08 ack data: 0xF4 
read to 0x08 ack data: 0x0D
write to 0x08 ack data: 0xF4 0x0C 
write to 0x08 ack data: 0xF1 
read to 0x08 ack data: 0x62
write to 0x08 ack data: 0xF5 
read to 0x08 ack data: 0x10
write to 0x08 ack data: 0xF4 
read to 0x08 ack data: 0x0C
write to 0x08 ack data: 0xF4 0x0D 
write to 0x08 ack data: 0xF4 
read to 0x08 ack data: 0x0D
write to 0x08 ack data: 0xF4 0x0C 
write to 0x08 ack data: 0xF5 
read to 0x08 ack data: 0x10
write to 0x39 ack data: 0x93 
read to 0x39 ack data: 0x90
write to 0x39 ack data: 0x93 0x90 
write to 0x08 ack data: 0xF4 
read to 0x08 ack data: 0x0C
write to 0x08 ack data: 0xF4 0x0D 
write to 0x08 ack data: 0xF4 
read to 0x08 ack data: 0x0D
write to 0x08 ack data: 0xF4 0x0C 
write to 0x39 ack data: 0x93 
read to 0x39 ack data: 0x00
write to 0x08 ack data: 0xF5 
read to 0x08 ack data: 0x60
write to 0x08 ack data: 0xF4 
read to 0x08 ack data: 0x0C
write to 0x08 ack data: 0xF4 0x0D 
write to 0x08 ack data: 0xF4 
read to 0x08 ack data: 0x0D
write to 0x08 ack data: 0xF4 0x0C 
write to 0x08 ack data: 0xF5 
read to 0x08 ack data: 0x60
write to 0x08 ack data: 0xF4 
read to 0x08 ack data: 0x0C
write to 0x08 ack data: 0xF4 0x0D 
write to 0x08 ack data: 0xF4 
read to 0x08 ack data: 0x0D
write to 0x08 ack data: 0xF4 0x0C 
write to 0x08 ack data: 0xF1 
read to 0x08 ack data: 0x62
write to 0x08 ack data: 0xF5 
read to 0x08 ack data: 0x10
write to 0x08 ack data: 0xF4 
read to 0x08 ack data: 0x0C
write to 0x08 ack data: 0xF4 0x0D 
write to 0x08 ack data: 0xF4 
read to 0x08 ack data: 0x0D
write to 0x08 ack data: 0xF4 0x0C 
write to 0x08 ack data: 0xF5 
read to 0x08 ack data: 0x10
write to 0x39 ack data: 0x93 
read to 0x39 ack data: 0x90
write to 0x39 ack data: 0x93 0x90 
write to 0x08 ack data: 0xF4 
read to 0x08 ack data: 0x0C
write to 0x08 ack data: 0xF4 0x0D 
write to 0x08 ack data: 0xF4 
read to 0x08 ack data: 0x0D
write to 0x08 ack data: 0xF4 0x0C 
write to 0x39 ack data: 0x93 
read to 0x39 ack data: 0x00
write to 0x08 ack data: 0xF5 
read to 0x08 ack data: 0x60
write to 0x08 ack data: 0xF4 
read to 0x08 ack data: 0x0C
write to 0x08 ack data: 0xF4 0x0D 
write to 0x08 ack data: 0xF4 
read to 0x08 ack data: 0x0D
write to 0x08 ack data: 0xF4 0x0C 
write to 0x08 ack data: 0xF5 
read to 0x08 ack data: 0x60
write to 0x08 ack data: 0xF4 
read to 0x08 ack data: 0x0C
write to 0x08 ack data: 0xF4 0x0D 
write to 0x08 ack data: 0xF4 
read to 0x08 ack data: 0x0D
write to 0x08 ack data: 0xF4 0x0C 
write to 0x08 ack data: 0xF1 
read to 0x08 ack data: 0x62
write to 0x08 ack data: 0xF5 
read to 0x08 ack data: 0x10
write to 0x08 ack data: 0xF4 
read to 0x08 ack data: 0x0C
write to 0x08 ack data: 0xF4 0x0D 
write to 0x08 ack data: 0xF4 
read to 0x08 ack data: 0x0D
write to 0x08 ack data: 0xF4 0x0C 
write to 0x08 ack data: 0xF5 
read to 0x08 ack data: 0x10
write to 0x39 ack data: 0x93 
read to 0x39 ack data: 0x90
write to 0x39 ack data: 0x93 0x90 
write to 0x08 ack data: 0xF4 
read to 0x08 ack data: 0x0C
write to 0x08 ack data: 0xF4 0x0D 
write to 0x08 ack data: 0xF4 
read to 0x08 ack data: 0x0D
write to 0x08 ack data: 0xF4 0x0C 
write to 0x39 ack data: 0x93 
read to 0x39 ack data: 0x00
write to 0x08 ack data: 0xF5 
read to 0x08 ack data: 0x60
write to 0x08 ack data: 0xF4 
read to 0x08 ack data: 0x0C
write to 0x08 ack data: 0xF4 0x0D 
write to 0x08 ack data: 0xF4 
read to 0x08 ack data: 0x0D
write to 0x08 ack data: 0xF4 0x0C 
write to 0x08 ack data: 0xF5 
read to 0x08 ack data: 0x60
write to 0x08 ack data: 0xF4 
read to 0x08 ack data: 0x0C
write to 0x08 ack data: 0xF4 0x0D 
write to 0x08 ack data: 0xF4 
read to 0x08 ack data: 0x0D
write to 0x08 ack data: 0xF4 0x0C 
write to 0x08 ack data: 0xF1 
read to 0x08 ack data: 0x62
write to 0x08 ack data: 0xF5 
read to 0x08 ack data: 0x10
write to 0x08 ack data: 0xF4 
read to 0x08 ack data: 0x0C
write to 0x08 ack data: 0xF4 0x0D 
write to 0x08 ack data: 0xF4 
read to 0x08 ack data: 0x0D
write to 0x08 ack data: 0xF4 0x0C 
write to 0x08 ack data: 0xF5 
read to 0x08 ack data: 0x10
write to 0x39 ack data: 0x93 
read to 0x39 ack data: 0x90
write to 0x39 ack data: 0x93 0x90 
write to 0x08 ack data: 0xF4 
read to 0x08 ack data: 0x0C
write to 0x08 ack data: 0xF4 0x0D 
write to 0x08 ack data: 0xF4 
read to 0x08 ack data: 0x0D
write to 0x08 ack data: 0xF4 0x0C 
write to 0x39 ack data: 0x93 
read to 0x39 ack data: 0x00
write to 0x08 ack data: 0xF5 
read to 0x08 ack data: 0x60
write to 0x08 ack data: 0xF4 
read to 0x08 ack data: 0x0C
write to 0x08 ack data: 0xF4 0x0D 
write to 0x08 ack data: 0xF4 
read to 0x08 ack data: 0x0D
write to 0x08 ack data: 0xF4 0x0C 
write to 0x08 ack data: 0xF5 
read to 0x08 ack data: 0x60
write to 0x08 ack data: 0xF4 
read to 0x08 ack data: 0x0C
write to 0x08 ack data: 0xF4 0x0D 
write to 0x08 ack data: 0xF4 
read to 0x08 ack data: 0x0D
write to 0x08 ack data: 0xF4 0x0C 
write to 0x08 ack data: 0xF1 
read to 0x08 ack data: 0x62
write to 0x08 ack data: 0xF5 
read to 0x08 ack data: 0x10
write to 0x08 ack data: 0xF4 
read to 0x08 ack data: 0x0C
write to 0x08 ack data: 0xF4 0x0D 
write to 0x08 ack data: 0xF4 
read to 0x08 ack data: 0x0D
write to 0x08 ack data: 0xF4 0x0C 
write to 0x08 ack data: 0xF5 
read to 0x08 ack data: 0x10
write to 0x39 ack data: 0x93 
read to 0x39 ack data: 0x90
write to 0x39 ack data: 0x93 0x90 
write to 0x08 ack data: 0xF4 
read to 0x08 ack data: 0x0C
write to 0x08 ack data: 0xF4 0x0D 
write to 0x08 ack data: 0xF4 
read to 0x08 ack data: 0x0D
write to 0x08 ack data: 0xF4 0x0C 
write to 0x39 ack data: 0x93 
read to 0x39 ack data: 0x00
write to 0x08 ack data: 0xF5 
read to 0x08 ack data: 0x60
write to 0x08 ack data: 0xF4 
read to 0x08 ack data: 0x0C
write to 0x08 ack data: 0xF4 0x0D 
write to 0x08 ack data: 0xF4 
read to 0x08 ack data: 0x0D
write to 0x08 ack data: 0xF4 0x0C 
write to 0x08 ack data: 0xF5 
read to 0x08 ack data: 0x60
write to 0x08 ack data: 0xF4 
read to 0x08 ack data: 0x0C
write to 0x08 ack data: 0xF4 0x0D 
write to 0x08 ack data: 0xF4 
read to 0x08 ack data: 0x0D
write to 0x08 ack data: 0xF4 0x0C 
write to 0x08 ack data: 0xF1 
read to 0x08 ack data: 0x62
write to 0x08 ack data: 0xF5 
read to 0x08 ack data: 0x10
write to 0x08 ack data: 0xF4 
read to 0x08 ack data: 0x0C
write to 0x08 ack data: 0xF4 0x0D 
write to 0x08 ack data: 0xF4 
read to 0x08 ack data: 0x0D
write to 0x08 ack data: 0xF4 0x0C 
write to 0x08 ack data: 0xF5 
read to 0x08 ack data: 0x10
write to 0x39 ack data: 0x93 
read to 0x39 ack data: 0x90
write to 0x39 ack data: 0x93 0x90 
write to 0x08 ack data: 0xF4 
read to 0x08 ack data: 0x0C
write to 0x08 ack data: 0xF4 0x0D 
write to 0x08 ack data: 0xF4 
read to 0x08 ack data: 0x0D
write to 0x08 ack data: 0xF4 0x0C 
write to 0x39 ack data: 0x93 
read to 0x39 ack data: 0x00
write to 0x08 ack data: 0xF5 
read to 0x08 ack data: 0x60
write to 0x08 ack data: 0xF4 
read to 0x08 ack data: 0x0C
write to 0x08 ack data: 0xF4 0x0D 
write to 0x08 ack data: 0xF4 
read to 0x08 ack data: 0x0D
write to 0x08 ack data: 0xF4 0x0C 
write to 0x08 ack data: 0xF5 
read to 0x08 ack data: 0x60
write to 0x08 ack data: 0xF4 
read to 0x08 ack data: 0x0C
write to 0x08 ack data: 0xF4 0x0D 
write to 0x08 ack data: 0xF4 
read to 0x08 ack data: 0x0D
write to 0x08 ack data: 0xF4 0x0C 
write to 0x08 ack data: 0xF1 
read to 0x08 ack data: 0x62
write to 0x08 ack data: 0xF5 
read to 0x08 ack data: 0x10
write to 0x08 ack data: 0xF4 
read to 0x08 ack data: 0x0C
write to 0x08 ack data: 0xF4 0x0D 
write to 0x08 ack data: 0xF4 
read to 0x08 ack data: 0x0D
write to 0x08 ack data: 0xF4 0x0C 
write to 0x08 ack data: 0xF5 
read to 0x08 ack data: 0x10
write to 0x39 ack data: 0x93 
read to 0x39 ack data: 0x90
write to 0x39 ack data: 0x93 0x90 
write to 0x08 ack data: 0xF4 
read to 0x08 ack data: 0x0C
write to 0x08 ack data: 0xF4 0x0D 
write to 0x08 ack data: 0xF4 
read to 0x08 ack data: 0x0D
write to 0x08 ack data: 0xF4 0x0C 
write to 0x39 ack data: 0x93 
read to 0x39 ack data: 0x00
write to 0x08 ack data: 0xF5 
read to 0x08 ack data: 0x60
write to 0x08 ack data: 0xF4 
read to 0x08 ack data: 0x0C
write to 0x08 ack data: 0xF4 0x0D 
write to 0x08 ack data: 0xF4 
read to 0x08 ack data: 0x0D
write to 0x08 ack data: 0xF4 0x0C 
write to 0x08 ack data: 0xF5 
read to 0x08 ack data: 0x60
write to 0x08 ack data: 0xF4 
read to 0x08 ack data: 0x0C
write to 0x08 ack data: 0xF4 0x0D 
write to 0x08 ack data: 0xF4 
read to 0x08 ack data: 0x0D
write to 0x08 ack data: 0xF4 0x0C 
write to 0x08 ack data: 0xF1 
read to 0x08 ack data: 0x62
write to 0x08 ack data: 0xF5 
read to 0x08 ack data: 0x10
write to 0x08 ack data: 0xF4 
read to 0x08 ack data: 0x0C
write to 0x08 ack data: 0xF4 0x0D 
write to 0x08 ack data: 0xF4 
read to 0x08 ack data: 0x0D
write to 0x08 ack data: 0xF4 0x0C 
write to 0x08 ack data: 0xF5 
read to 0x08 ack data: 0x10
write to 0x39 ack data: 0x93 
read to 0x39 ack data: 0x90
write to 0x39 ack data: 0x93 0x90 
write to 0x08 ack data: 0xF4 
read to 0x08 ack data: 0x0C
write to 0x08 ack data: 0xF4 0x0D 
write to 0x08 ack data: 0xF4 
read to 0x08 ack data: 0x0D
write to 0x08 ack data: 0xF4 0x0C 
write to 0x39 ack data: 0x93 
read to 0x39 ack data: 0x00
write to 0x08 ack data: 0xF5 
read to 0x08 ack data: 0x60
write to 0x08 ack data: 0xF4 
read to 0x08 ack data: 0x0C
write to 0x08 ack data: 0xF4 0x0D 
write to 0x08 ack data: 0xF4 
read to 0x08 ack data: 0x0D
write to 0x08 ack data: 0xF4 0x0C 
write to 0x08 ack data: 0xF5 
read to 0x08 ack data: 0x60
write to 0x08 ack data: 0xF4 
read to 0x08 ack data: 0x0C
write to 0x08 ack data: 0xF4 0x0D 
write to 0x08 ack data: 0xF4 
read to 0x08 ack data: 0x0D
write to 0x08 ack data: 0xF4 0x0C 
write to 0x08 ack data: 0xF1 
read to 0x08 ack data: 0x62
write to 0x08 ack data: 0xF5 
read to 0x08 ack data: 0x10
write to 0x08 ack data: 0xF4 
read to 0x08 ack data: 0x0C
write to 0x08 ack data: 0xF4 0x0D 
write to 0x08 ack data: 0xF4 
read to 0x08 ack data: 0x0D
write to 0x08 ack data: 0xF4 0x0C 
write to 0x08 ack data: 0xF5 
read to 0x08 ack data: 0x10
write to 0x39 ack data: 0x93 
read to 0x39 ack data: 0x90
write to 0x39 ack data: 0x93 0x90 
write to 0x08 ack data: 0xF4 
read to 0x08 ack data: 0x0C
write to 0x08 ack data: 0xF4 0x0D 
write to 0x08 ack data: 0xF4 
read to 0x08 ack data: 0x0D
write to 0x08 ack data: 0xF4 0x0C 
write to 0x39 ack data: 0x93 
read to 0x39 ack data: 0x00
write to 0x08 ack data: 0xF5 
read to 0x08 ack data: 0x60
write to 0x08 ack data: 0xF4 
read to 0x08 ack data: 0x0C
write to 0x08 ack data: 0xF4 0x0D 
write to 0x08 ack data: 0xF4 
read to 0x08 ack data: 0x0D
write to 0x08 ack data: 0xF4 0x0C 
write to 0x08 ack data: 0xF5 
read to 0x08 ack data: 0x60
write to 0x08 ack data: 0xF4 
read to 0x08 ack data: 0x0C
write to 0x08 ack data: 0xF4 0x0D 
write to 0x08 ack data: 0xF4 
read to 0x08 ack data: 0x0D
write to 0x08 ack data: 0xF4 0x0C 
write to 0x08 ack data: 0xF1 
read to 0x08 ack data: 0x62
write to 0x08 ack data: 0xF5 
read to 0x08 ack data: 0x10
write to 0x08 ack data: 0xF4 
read to 0x08 ack data: 0x0C
write to 0x08 ack data: 0xF4 0x0D 
write to 0x08 ack data: 0xF4 
read to 0x08 ack data: 0x0D
write to 0x08 ack data: 0xF4 0x0C 
write to 0x08 ack data: 0xF5 
read to 0x08 ack data: 0x10
write to 0x39 ack data: 0x93 
read to 0x39 ack data: 0x90
write to 0x39 ack data: 0x93 0x90 
write to 0x08 ack data: 0xF4 
read to 0x08 ack data: 0x0C
write to 0x08 ack data: 0xF4 0x0D 
write to 0x08 ack data: 0xF4 
read to 0x08 ack data: 0x0D
write to 0x08 ack data: 0xF4 0x0C 
write to 0x39 ack data: 0x93 
read to 0x39 ack data: 0x00
write to 0x08 ack data: 0xF5 
read to 0x08 ack data: 0x60
write to 0x08 ack data: 0xF4 
read to 0x08 ack data: 0x0C
write to 0x08 ack data: 0xF4 0x0D 
write to 0x08 ack data: 0xF4 
read to 0x08 ack data: 0x0D
write to 0x08 ack data: 0xF4 0x0C 
write to 0x08 ack data: 0xF5 
read to 0x08 ack data: 0x60
write to 0x08 ack data: 0xF4 
read to 0x08 ack data: 0x0C
write to 0x08 ack data: 0xF4 0x0D 
write to 0x08 ack data: 0xF4 
read to 0x08 ack data: 0x0D
write to 0x08 ack data: 0xF4 0x0C 
write to 0x08 ack data: 0xF1 
read to 0x08 ack data: 0x62
write to 0x39 ack data: 0x80 0x00 
write to 0x39 ack data: 0x80 0x00 0xFF 0x00 0x6A 0x00 0x00 0xFF 0xFF 0x00 0x00 0x00 0x00 0x00 0x80 0x00 0x00 0x03 0x00 0x00 0x00 0x00 0x00 0x00 0x00 0x00 0x00 0x00 0x00 0x00 0x00 0x00 0x14 
write to 0x39 ack data: 0xDD 0x10 
write to 0x39 ack data: 0x93 
read to 0x39 ack data: 0x80
write to 0x39 ack data: 0x93 0x80 
write to 0x39 ack data: 0xD6 0x40 
write to 0x39 ack data: 0x80 0x01 
write to 0x39 ack data: 0x80 0x0B 
write to 0x39 ack data: 0x80 0x00 
write to 0x39 ack data: 0x80 0x00 0xF7 0x00 0x6A 0x00 0x00 0xFF 0xFF 0x00 0x00 0x00 0x00 0x00 0x80 0x00 0x00 0x03 0x00 0x00 0x00 0x00 0x00 0x00 0x00 0x00 0x00 0x00 0x00 0x00 0x00 0x00 0x14 
write to 0x39 ack data: 0xDD 0x10 
write to 0x39 ack data: 0x93 
read to 0x39 ack data: 0x00
write to 0x39 ack data: 0x93 0x00 
write to 0x39 ack data: 0xD6 0x40 
write to 0x39 ack data: 0x80 0x01 
write to 0x39 ack data: 0x80 0x0B 
write to 0x39 ack data: 0x80 0x00 
write to 0x39 ack data: 0x80 0x00 0xF7 0x00 0x6A 0x00 0x00 0xFF 0xFF 0x00 0x00 0x00 0x00 0x00 0x80 0x00 0x00 0x03 0x00 0x00 0x00 0x00 0x00 0x00 0x00 0x00 0x00 0x00 0x00 0x00 0x00 0x00 0x14 
write to 0x39 ack data: 0xDD 0x10 
write to 0x39 ack data: 0x93 
read to 0x39 ack data: 0x00
write to 0x39 ack data: 0x93 0x00 
write to 0x39 ack data: 0xD6 0x40 
write to 0x39 ack data: 0x80 0x01 
write to 0x39 ack data: 0x80 0x0B 
write to 0x39 ack data: 0x80 0x00 
write to 0x39 ack data: 0x80 0x00 0xF7 0x00 0x6A 0x00 0x00 0xFF 0xFF 0x00 0x00 0x00 0x00 0x00 0x80 0x00 0x00 0x03 0x00 0x00 0x00 0x00 0x00 0x00 0x00 0x00 0x00 0x00 0x00 0x00 0x00 0x00 0x14 
write to 0x39 ack data: 0xD6 0x40 
write to 0x39 ack data: 0x80 0x01 
write to 0x39 ack data: 0x80 0x0B 
write to 0x39 ack data: 0x80 0x00 
write to 0x39 ack data: 0x80 0x00 0xF7 0x00 0x6A 0x00 0x00 0xFF 0xFF 0x00 0x00 0x00 0x00 0x00 0x80 0x00 0x00 0x03 0x00 0x00 0x00 0x00 0x00 0x00 0x00 0x00 0x00 0x00 0x00 0x00 0x00 0x00 0x14 
write to 0x39 ack data: 0xD6 0x40 
write to 0x39 ack data: 0x80 0x01 
write to 0x39 ack data: 0x80 0x0B 
write to 0x39 ack data: 0x80 0x00 
write to 0x39 ack data: 0x80 0x00 0xF7 0x00 0x6A 0x00 0x00 0xFF 0xFF 0x00 0x00 0x00 0x00 0x00 0x80 0x00 0x00 0x03 0x00 0x00 0x00 0x00 0x00 0x00 0x00 0x00 0x00 0x00 0x00 0x00 0x00 0x00 0x14 
write to 0x39 ack data: 0xD6 0x40 
write to 0x39 ack data: 0x80 0x01 
write to 0x39 ack data: 0x80 0x0B 
write to 0x39 ack data: 0x80 0x00 
write to 0x39 ack data: 0x80 0x00 0xF7 0x00 0x64 0x00 0x00 0xFF 0xFF 0x00 0x00 0x00 0x00 0x00 0x80 0x00 0x00 0x03 0x00 0x00 0x00 0x00 0x00 0x00 0x00 0x00 0x00 0x00 0x00 0x00 0x00 0x00 0x14 
write to 0x08 ack data: 0xF1 
read to 0x08 ack data: 0x62
write to 0x39 ack data: 0xD6 0x40 
write to 0x39 ack data: 0x80 0x01 
write to 0x39 ack data: 0x80 0x0B 
write to 0x39 ack data: 0x80 0x00 
write to 0x39 ack data: 0x80 0x00 0xF7 0x00 0x64 0x00 0x00 0xFF 0xFF 0x00 0x00 0x00 0x00 0x00 0x80 0x00 0x00 0x03 0x00 0x00 0x00 0x00 0x00 0x00 0x00 0x00 0x00 0x00 0x00 0x00 0x00 0x00 0x14 
write to 0x39 ack data: 0xD6 0x40 
write to 0x39 ack data: 0x80 0x01 
write to 0x39 ack data: 0x80 0x0B 
write to 0x39 ack data: 0x80 0x00 
write to 0x39 ack data: 0x80 0x00 0xF7 0x00 0x64 0x00 0x00 0xFF 0xFF 0x00 0x00 0x00 0x00 0x00 0x80 0x00 0x00 0x03 0x00 0x00 0x00 0x00 0x00 0x00 0x00 0x00 0x00 0x00 0x00 0x00 0x00 0x00 0x14 
write to 0x39 ack data: 0xDD 0x10 
write to 0x39 ack data: 0x93 
read to 0x39 ack data: 0x80
write to 0x39 ack data: 0x93 0x80 
write to 0x39 ack data: 0xD6 0x40 
write to 0x39 ack data: 0x80 0x01 
write to 0x39 ack data: 0x80 0x0B 
write to 0x08 ack data: 0xF5 
read to 0x08 ack data: 0x10
write to 0x08 ack data: 0xF4 
read to 0x08 ack data: 0x0C
write to 0x08 ack data: 0xF4 0x0D 
write to 0x08 ack data: 0xF4 
read to 0x08 ack data: 0x0D
write to 0x08 ack data: 0xF4 0x0C 
write to 0x08 ack data: 0xF5 
read to 0x08 ack data: 0x10
write to 0x39 ack data: 0x93 
read to 0x39 ack data: 0x90
write to 0x08 ack data: 0xF4 
read to 0x08 ack data: 0x0C
write to 0x39 ack data: 0x93 0x90 
write to 0x39 ack data: 0x93 
read to 0x39 ack data: 0x00
write to 0x08 ack data: 0xF4 0x0D 
write to 0x39 ack data: 0x94 
read to 0x39 ack data: 0xFF 0xFF 0xFF 0xFF
write to 0x39 ack data: 0x93 0x00 
write to 0x08 ack data: 0xF4 
read to 0x08 ack data: 0x0D
write to 0x08 ack data: 0xF4 0x0C 
write to 0x39 ack data: 0x93 
read to 0x39 ack data: 0x00
write to 0x08 ack data: 0xF5 
read to 0x08 ack data: 0x60
write to 0x08 ack data: 0xF4 
read to 0x08 ack data: 0x0C
write to 0x08 ack data: 0xF4 0x0D 
write to 0x08 ack data: 0xF4 
read to 0x08 ack data: 0x0D
write to 0x08 ack data: 0xF4 0x0C 
write to 0x08 ack data: 0xF5 
read to 0x08 ack data: 0x60
write to 0x08 ack data: 0xF4 
read to 0x08 ack data: 0x0C
write to 0x08 ack data: 0xF4 0x0D 
write to 0x08 ack data: 0xF4 
read to 0x08 ack data: 0x0D
write to 0x08 ack data: 0xF4 0x0C 
write to 0x08 ack data: 0xF1 
read to 0x08 ack data: 0x62
write to 0x08 ack data: 0xF5 
read to 0x08 ack data: 0x10
write to 0x08 ack data: 0xF4 
read to 0x08 ack data: 0x0C
write to 0x08 ack data: 0xF4 0x0D 
write to 0x08 ack data: 0xF4 
read to 0x08 ack data: 0x0D
write to 0x08 ack data: 0xF4 0x0C 
write to 0x08 ack data: 0xF5 
read to 0x08 ack data: 0x10
write to 0x39 ack data: 0x93 
read to 0x39 ack data: 0x90
write to 0x08 ack data: 0xF4 
read to 0x08 ack data: 0x0C
write to 0x39 ack data: 0x93 0x90 
write to 0x39 ack data: 0x93 
read to 0x39 ack data: 0x00
write to 0x08 ack data: 0xF4 0x0D 
write to 0x39 ack data: 0x94 
read to 0x39 ack data: 0xFF 0xFF 0xFF 0xFF
write to 0x39 ack data: 0x93 0x00 
write to 0x39 ack data: 0x80 0x00 
write to 0x08 ack data: 0xF4 
read to 0x08 ack data: 0x0D
write to 0x39 ack data: 0x80 0x00 0xF7 0x00 0x64 0x00 0x00 0xFF 0xFF 0x00 0x00 0x00 0x00 0x00 0x80 0x00 0x00 0x03 0x00 0x00 0x00 0x00 0x00 0x00 0x00 0x00 0x00 0x00 0x00 0x00 0x00 0x00 0x04 
write to 0x08 ack data: 0xF4 0x0C 
write to 0x39 ack data: 0x93 
read to 0x39 ack data: 0x00
write to 0x39 ack data: 0xDD 0x10 
write to 0x39 ack data: 0x93 
read to 0x39 ack data: 0x00
write to 0x39 ack data: 0x93 0x00 
write to 0x39 ack data: 0xD6 0x40 
write to 0x39 ack data: 0x80 0x01 
write to 0x39 ack data: 0x80 0x0B 
write to 0x08 ack data: 0xF5 
read to 0x08 ack data: 0x60
write to 0x08 ack data: 0xF4 
read to 0x08 ack data: 0x0C
write to 0x08 ack data: 0xF4 0x0D 
write to 0x08 ack data: 0xF4 
read to 0x08 ack data: 0x0D
write to 0x08 ack data: 0xF4 0x0C 
write to 0x08 ack data: 0xF5 
read to 0x08 ack data: 0x60
write to 0x08 ack data: 0xF4 
read to 0x08 ack data: 0x0C
write to 0x08 ack data: 0xF4 0x0D 
write to 0x08 ack data: 0xF4 
read to 0x08 ack data: 0x0D
write to 0x08 ack data: 0xF4 0x0C 
write to 0x08 ack data: 0xF1 
read to 0x08 ack data: 0x62
write to 0x08 ack data: 0xF5 
read to 0x08 ack data: 0x10
write to 0x08 ack data: 0xF4 
read to 0x08 ack data: 0x0C
write to 0x08 ack data: 0xF4 0x0D 
write to 0x08 ack data: 0xF4 
read to 0x08 ack data: 0x0D
write to 0x08 ack data: 0xF4 0x0C 
write to 0x08 ack data: 0xF5 
read to 0x08 ack data: 0x10
write to 0x39 ack data: 0x93 
read to 0x39 ack data: 0x90
write to 0x08 ack data: 0xF4 
read to 0x08 ack data: 0x0C
write to 0x39 ack data: 0x93 0x90 
write to 0x39 ack data: 0x93 
read to 0x39 ack data: 0x00
write to 0x08 ack data: 0xF4 0x0D 
write to 0x39 ack data: 0x94 
read to 0x39 ack data: 0xFF 0xFF 0xFF 0xFF
write to 0x39 ack data: 0x93 0x00 
write to 0x08 ack data: 0xF4 
read to 0x08 ack data: 0x0D
write to 0x08 ack data: 0xF4 0x0C 
write to 0x39 ack data: 0x93 
read to 0x39 ack data: 0x00
write to 0x08 ack data: 0xF5 
read to 0x08 ack data: 0x60
write to 0x08 ack data: 0xF4 
read to 0x08 ack data: 0x0C
write to 0x08 ack data: 0xF4 0x0D 
write to 0x08 ack data: 0xF4 
read to 0x08 ack data: 0x0D
write to 0x08 ack data: 0xF4 0x0C 
write to 0x08 ack data: 0xF5 
read to 0x08 ack data: 0x60
write to 0x08 ack data: 0xF4 
read to 0x08 ack data: 0x0C
write to 0x08 ack data: 0xF4 0x0D 
write to 0x08 ack data: 0xF4 
read to 0x08 ack data: 0x0D
write to 0x08 ack data: 0xF4 0x0C 
write to 0x08 ack data: 0xF1 
read to 0x08 ack data: 0x62
write to 0x08 ack data: 0xF5 
read to 0x08 ack data: 0x10
write to 0x08 ack data: 0xF4 
read to 0x08 ack data: 0x0C
write to 0x08 ack data: 0xF4 0x0D 
write to 0x08 ack data: 0xF4 
read to 0x08 ack data: 0x0D
write to 0x08 ack data: 0xF4 0x0C 
write to 0x08 ack data: 0xF5 
read to 0x08 ack data: 0x10
write to 0x39 ack data: 0x93 
read to 0x39 ack data: 0x90
write to 0x08 ack data: 0xF4 
read to 0x08 ack data: 0x0C
write to 0x39 ack data: 0x93 0x90 
write to 0x39 ack data: 0x93 
read to 0x39 ack data: 0x00
write to 0x08 ack data: 0xF4 0x0D 
write to 0x39 ack data: 0x94 
read to 0x39 ack data: 0xFF 0xFF 0xFF 0xFF
write to 0x39 ack data: 0x93 0x00 
write to 0x39 ack data: 0x80 0x00 
write to 0x08 ack data: 0xF4 
read to 0x08 ack data: 0x0D
write to 0x39 ack data: 0x80 0x00 0xF7 0x00 0x64 0x00 0x00 0xFF 0xFF 0x00 0x00 0x00 0x00 0x00 0x80 0x00 0x00 0x02 0x00 0x00 0x00 0x00 0x00 0x00 0x00 0x00 0x00 0x00 0x00 0x00 0x00 0x00 0x04 
write to 0x08 ack data: 0xF4 0x0C 
write to 0x39 ack data: 0xDD 0x10 
write to 0x39 ack data: 0x93 
read to 0x39 ack data: 0x00
write to 0x39 ack data: 0x93 
read to 0x39 ack data: 0x00
write to 0x39 ack data: 0x93 0x00 
write to 0x39 ack data: 0xD6 0x40 
write to 0x39 ack data: 0x80 0x01 
write to 0x39 ack data: 0x80 0x0B 
write to 0x08 ack data: 0xF5 
read to 0x08 ack data: 0x60
write to 0x08 ack data: 0xF4 
read to 0x08 ack data: 0x0C
write to 0x08 ack data: 0xF4 0x0D 
write to 0x08 ack data: 0xF4 
read to 0x08 ack data: 0x0D
write to 0x08 ack data: 0xF4 0x0C 
write to 0x08 ack data: 0xF5 
read to 0x08 ack data: 0x60
write to 0x08 ack data: 0xF4 
read to 0x08 ack data: 0x0C
write to 0x08 ack data: 0xF4 0x0D 
write to 0x08 ack data: 0xF4 
read to 0x08 ack data: 0x0D
write to 0x08 ack data: 0xF4 0x0C 
write to 0x08 ack data: 0xF1 
read to 0x08 ack data: 0x62
write to 0x08 ack data: 0xF5 
read to 0x08 ack data: 0x10
write to 0x08 ack data: 0xF4 
read to 0x08 ack data: 0x0C
write to 0x08 ack data: 0xF4 0x0D 
write to 0x08 ack data: 0xF4 
read to 0x08 ack data: 0x0D
write to 0x08 ack data: 0xF4 0x0C 
write to 0x08 ack data: 0xF5 
read to 0x08 ack data: 0x10
write to 0x39 ack data: 0x93 
read to 0x39 ack data: 0x10
write to 0x08 ack data: 0xF4 
read to 0x08 ack data: 0x0C
write to 0x39 ack data: 0x93 0x10 
write to 0x39 ack data: 0x93 
read to 0x39 ack data: 0x00
write to 0x08 ack data: 0xF4 0x0D 
write to 0x39 ack data: 0x94 
read to 0x39 ack data: 0xFF 0xFF 0x58 0x42
write to 0x08 ack data: 0xF4 
read to 0x08 ack data: 0x0D
write to 0x39 ack data: 0x93 0x00 
write to 0x08 ack data: 0xF4 0x0C 
write to 0x39 ack data: 0x93 
read to 0x39 ack data: 0x00
write to 0x08 ack data: 0xF5 
read to 0x08 ack data: 0x60
write to 0x08 ack data: 0xF4 
read to 0x08 ack data: 0x0C
write to 0x08 ack data: 0xF4 0x0D 
write to 0x08 ack data: 0xF4 
read to 0x08 ack data: 0x0D
write to 0x08 ack data: 0xF4 0x0C 
write to 0x08 ack data: 0xF5 
read to 0x08 ack data: 0x60
write to 0x08 ack data: 0xF4 
read to 0x08 ack data: 0x0C
write to 0x08 ack data: 0xF4 0x0D 
write to 0x08 ack data: 0xF4 
read to 0x08 ack data: 0x0D
write to 0x08 ack data: 0xF4 0x0C 
write to 0x08 ack data: 0xF1 
read to 0x08 ack data: 0x62
write to 0x08 ack data: 0xF5 
read to 0x08 ack data: 0x10
write to 0x08 ack data: 0xF4 
read to 0x08 ack data: 0x0C
write to 0x08 ack data: 0xF4 0x0D 
write to 0x08 ack data: 0xF4 
read to 0x08 ack data: 0x0D
write to 0x08 ack data: 0xF4 0x0C 
write to 0x08 ack data: 0xF5 
read to 0x08 ack data: 0x10
write to 0x39 ack data: 0x93 
read to 0x39 ack data: 0x10
write to 0x08 ack data: 0xF4 
read to 0x08 ack data: 0x0C
write to 0x39 ack data: 0x93 0x10 
write to 0x39 ack data: 0x93 
read to 0x39 ack data: 0x00
write to 0x08 ack data: 0xF4 0x0D 
write to 0x39 ack data: 0x94 
read to 0x39 ack data: 0xFF 0xFF 0x46 0x42
write to 0x39 ack data: 0x93 0x00 
write to 0x39 ack data: 0x80 0x00 
write to 0x08 ack data: 0xF4 
read to 0x08 ack data: 0x0D
write to 0x39 ack data: 0x80 0x00 0xF7 0x00 0x64 0x00 0x00 0xFF 0xFF 0x00 0x00 0x00 0x00 0x00 0x80 0x00 0x00 0x01 0x00 0x00 0x00 0x00 0x00 0x00 0x00 0x00 0x00 0x00 0x00 0x00 0x00 0x00 0x04 
write to 0x08 ack data: 0xF4 0x0C 
write to 0x39 ack data: 0x93 
read to 0x39 ack data: 0x00
write to 0x39 ack data: 0xDD 0x10 
write to 0x39 ack data: 0x93 
read to 0x39 ack data: 0x00
write to 0x39 ack data: 0x93 0x00 
write to 0x39 ack data: 0xD6 0x40 
write to 0x39 ack data: 0x80 0x01 
write to 0x39 ack data: 0x80 0x0B 
write to 0x08 ack data: 0xF5 
read to 0x08 ack data: 0x60
write to 0x08 ack data: 0xF4 
read to 0x08 ack data: 0x0C
write to 0x08 ack data: 0xF4 0x0D 
write to 0x08 ack data: 0xF4 
read to 0x08 ack data: 0x0D
write to 0x08 ack data: 0xF4 0x0C 
write to 0x08 ack data: 0xF5 
read to 0x08 ack data: 0x60
write to 0x08 ack data: 0xF4 
read to 0x08 ack data: 0x0C
write to 0x08 ack data: 0xF4 0x0D 
write to 0x08 ack data: 0xF4 
read to 0x08 ack data: 0x0D
write to 0x08 ack data: 0xF4 0x0C 
write to 0x08 ack data: 0xF1 
read to 0x08 ack data: 0x62
write to 0x10 ack data: 0x00 0x21 
write to 0x10 ack data: 0x00 0x23 
write to 0x10 ack data: 0x00 0x27 
write to 0x10 ack data: 0x0E 0x65 
write to 0x10 ack data: 0x05 0x61 
write to 0x10 ack data: 0x05 0x11 
write to 0x10 ack data: 0x06 0x61 
write to 0x10 ack data: 0x06 0x11 
write to 0x10 ack data: 0x27 0x96 
write to 0x10 ack data: 0x28 0x96 
write to 0x10 ack data: 0x2B 0x96 
write to 0x10 ack data: 0x2C 0x96 
write to 0x08 ack data: 0xF5 
read to 0x08 ack data: 0x10
write to 0x08 ack data: 0xF4 
read to 0x08 ack data: 0x0C
write to 0x08 ack data: 0xF4 0x0D 
write to 0x08 ack data: 0xF4 
read to 0x08 ack data: 0x0D
write to 0x08 ack data: 0xF4 0x0C 
write to 0x08 ack data: 0xF5 
read to 0x08 ack data: 0x10
write to 0x39 ack data: 0x93 
read to 0x39 ack data: 0x10
write to 0x08 ack data: 0xF4 
read to 0x08 ack data: 0x0C
write to 0x39 ack data: 0x93 0x10 
write to 0x39 ack data: 0x93 
read to 0x39 ack data: 0x00
write to 0x08 ack data: 0xF4 0x0D 
write to 0x39 ack data: 0x94 
read to 0x39 ack data: 0x91 0x58 0xAE 0x10
write to 0x39 ack data: 0x93 0x00 
write to 0x08 ack data: 0xF4 
read to 0x08 ack data: 0x0D
write to 0x08 ack data: 0xF4 0x0C 
write to 0x39 ack data: 0x93 
read to 0x39 ack data: 0x00
write to 0x08 ack data: 0xF5 
read to 0x08 ack data: 0x60
write to 0x08 ack data: 0xF4 
read to 0x08 ack data: 0x0C
write to 0x08 ack data: 0xF4 0x0D 
write to 0x08 ack data: 0xF4 
read to 0x08 ack data: 0x0D
write to 0x08 ack data: 0xF4 0x0C 
write to 0x08 ack data: 0xF5 
read to 0x08 ack data: 0x60
write to 0x08 ack data: 0xF4 
read to 0x08 ack data: 0x0C
write to 0x08 ack data: 0xF4 0x0D 
write to 0x08 ack data: 0xF4 
read to 0x08 ack data: 0x0D
write to 0x08 ack data: 0xF4 0x0C 
write to 0x08 ack data: 0xF1 
read to 0x08 ack data: 0x62
write to 0x08 ack data: 0xF5 
read to 0x08 ack data: 0x10
write to 0x08 ack data: 0xF4 
read to 0x08 ack data: 0x0C
write to 0x08 ack data: 0xF4 0x0D 
write to 0x08 ack data: 0xF4 
read to 0x08 ack data: 0x0D
write to 0x08 ack data: 0xF4 0x0C 
write to 0x08 ack data: 0xF5 
read to 0x08 ack data: 0x10
write to 0x39 ack data: 0x93 
read to 0x39 ack data: 0x10
write to 0x08 ack data: 0xF4 
read to 0x08 ack data: 0x0C
write to 0x39 ack data: 0x93 0x10 
write to 0x39 ack data: 0x93 
read to 0x39 ack data: 0x00
write to 0x08 ack data: 0xF4 0x0D 
write to 0x39 ack data: 0x94 
read to 0x39 ack data: 0xCE 0x58 0xCC 0x10
write to 0x39 ack data: 0x93 0x00 
write to 0x08 ack data: 0xF4 
read to 0x08 ack data: 0x0D
write to 0x08 ack data: 0xF4 0x0C 
write to 0x39 ack data: 0x93 
read to 0x39 ack data: 0x00
write to 0x08 ack data: 0xF5 
read to 0x08 ack data: 0x60
write to 0x08 ack data: 0xF4 
read to 0x08 ack data: 0x0C
write to 0x08 ack data: 0xF4 0x0D 
write to 0x08 ack data: 0xF4 
read to 0x08 ack data: 0x0D
write to 0x08 ack data: 0xF4 0x0C 
write to 0x08 ack data: 0xF5 
read to 0x08 ack data: 0x60
write to 0x08 ack data: 0xF4 
read to 0x08 ack data: 0x0C
write to 0x08 ack data: 0xF4 0x0D 
write to 0x08 ack data: 0xF4 
read to 0x08 ack data: 0x0D
write to 0x08 ack data: 0xF4 0x0C 
write to 0x08 ack data: 0xF1 
read to 0x08 ack data: 0x62
write to 0x08 ack data: 0xF5 
read to 0x08 ack data: 0x10
write to 0x08 ack data: 0xF4 
read to 0x08 ack data: 0x0C
write to 0x08 ack data: 0xF4 0x0D 
write to 0x08 ack data: 0xF4 
read to 0x08 ack data: 0x0D
write to 0x08 ack data: 0xF4 0x0C 
write to 0x08 ack data: 0xF5 
read to 0x08 ack data: 0x10
write to 0x39 ack data: 0x93 
read to 0x39 ack data: 0x10
write to 0x08 ack data: 0xF4 
read to 0x08 ack data: 0x0C
write to 0x39 ack data: 0x93 0x10 
write to 0x39 ack data: 0x93 
read to 0x39 ack data: 0x00
write to 0x08 ack data: 0xF4 0x0D 
write to 0x39 ack data: 0x94 
read to 0x39 ack data: 0xC7 0x58 0xCA 0x10
write to 0x39 ack data: 0x93 0x00 
write to 0x08 ack data: 0xF4 
read to 0x08 ack data: 0x0D
write to 0x08 ack data: 0xF4 0x0C 
write to 0x39 ack data: 0x93 
read to 0x39 ack data: 0x00
write to 0x08 ack data: 0xF5 
read to 0x08 ack data: 0x60
write to 0x08 ack data: 0xF4 
read to 0x08 ack data: 0x0C
write to 0x08 ack data: 0xF4 0x0D 
write to 0x08 ack data: 0xF4 
read to 0x08 ack data: 0x0D
write to 0x08 ack data: 0xF4 0x0C 
write to 0x08 ack data: 0xF5 
read to 0x08 ack data: 0x60
write to 0x08 ack data: 0xF4 
read to 0x08 ack data: 0x0C
write to 0x08 ack data: 0xF4 0x0D 
write to 0x08 ack data: 0xF4 
read to 0x08 ack data: 0x0D
write to 0x08 ack data: 0xF4 0x0C 
write to 0x08 ack data: 0xF1 
read to 0x08 ack data: 0x62
write to 0x08 ack data: 0xF5 
read to 0x08 ack data: 0x10
write to 0x08 ack data: 0xF4 
read to 0x08 ack data: 0x0C
write to 0x08 ack data: 0xF4 0x0D 
write to 0x08 ack data: 0xF4 
read to 0x08 ack data: 0x0D
write to 0x08 ack data: 0xF4 0x0C 
write to 0x08 ack data: 0xF5 
read to 0x08 ack data: 0x10
write to 0x39 ack data: 0x93 
read to 0x39 ack data: 0x10
write to 0x39 ack data: 0x93 0x10 
write to 0x08 ack data: 0xF4 
read to 0x08 ack data: 0x0C
write to 0x39 ack data: 0x93 
read to 0x39 ack data: 0x00
write to 0x08 ack data: 0xF4 0x0D 
write to 0x39 ack data: 0x94 
read to 0x39 ack data: 0xB9 0x58 0xC2 0x10
write to 0x39 ack data: 0x93 0x00 
write to 0x08 ack data: 0xF4 
read to 0x08 ack data: 0x0D
write to 0x08 ack data: 0xF4 0x0C 
write to 0x39 ack data: 0x93 
read to 0x39 ack data: 0x00
write to 0x08 ack data: 0xF5 
read to 0x08 ack data: 0x60
write to 0x08 ack data: 0xF4 
read to 0x08 ack data: 0x0C
write to 0x08 ack data: 0xF4 0x0D 
write to 0x08 ack data: 0xF4 
read to 0x08 ack data: 0x0D
write to 0x08 ack data: 0xF4 0x0C 
write to 0x08 ack data: 0xF5 
read to 0x08 ack data: 0x60
write to 0x08 ack data: 0xF4 
read to 0x08 ack data: 0x0C
write to 0x08 ack data: 0xF4 0x0D 
write to 0x08 ack data: 0xF4 
read to 0x08 ack data: 0x0D
write to 0x08 ack data: 0xF4 0x0C 
write to 0x08 ack data: 0xF1 
read to 0x08 ack data: 0x62
write to 0x08 ack data: 0xF5 
read to 0x08 ack data: 0x10
write to 0x08 ack data: 0xF4 
read to 0x08 ack data: 0x0C
write to 0x08 ack data: 0xF4 0x0D 
write to 0x08 ack data: 0xF4 
read to 0x08 ack data: 0x0D
write to 0x08 ack data: 0xF4 0x0C 
write to 0x08 ack data: 0xF5 
read to 0x08 ack data: 0x10
write to 0x39 ack data: 0x93 
read to 0x39 ack data: 0x10
write to 0x08 ack data: 0xF4 
read to 0x08 ack data: 0x0C
write to 0x39 ack data: 0x93 0x10 
write to 0x39 ack data: 0x93 
read to 0x39 ack data: 0x00
write to 0x08 ack data: 0xF4 0x0D 
write to 0x39 ack data: 0x94 
read to 0x39 ack data: 0xCF 0x58 0xC9 0x10
write to 0x39 ack data: 0x93 0x00 
write to 0x08 ack data: 0xF4 
read to 0x08 ack data: 0x0D
write to 0x08 ack data: 0xF4 0x0C 
write to 0x39 ack data: 0x93 
read to 0x39 ack data: 0x00
write to 0x08 ack data: 0xF5 
read to 0x08 ack data: 0x60
write to 0x08 ack data: 0xF4 
read to 0x08 ack data: 0x0C
write to 0x08 ack data: 0xF4 0x0D 
write to 0x08 ack data: 0xF4 
read to 0x08 ack data: 0x0D
write to 0x08 ack data: 0xF4 0x0C 
write to 0x08 ack data: 0xF5 
read to 0x08 ack data: 0x60
write to 0x08 ack data: 0xF4 
read to 0x08 ack data: 0x0C
write to 0x08 ack data: 0xF4 0x0D 
write to 0x08 ack data: 0xF4 
read to 0x08 ack data: 0x0D
write to 0x08 ack data: 0xF4 0x0C 
write to 0x08 ack data: 0xF1 
read to 0x08 ack data: 0x62
write to 0x08 ack data: 0xF5 
read to 0x08 ack data: 0x10
write to 0x08 ack data: 0xF4 
read to 0x08 ack data: 0x0C
write to 0x08 ack data: 0xF4 0x0D 
write to 0x08 ack data: 0xF4 
read to 0x08 ack data: 0x0D
write to 0x08 ack data: 0xF4 0x0C 
write to 0x08 ack data: 0xF5 
read to 0x08 ack data: 0x10
write to 0x39 ack data: 0x93 
read to 0x39 ack data: 0x10
write to 0x39 ack data: 0x93 0x10 
write to 0x08 ack data: 0xF4 
read to 0x08 ack data: 0x0C
write to 0x39 ack data: 0x93 
read to 0x39 ack data: 0x00
write to 0x08 ack data: 0xF4 0x0D 
write to 0x39 ack data: 0x94 
read to 0x39 ack data: 0xCA 0x58 0xC9 0x10
write to 0x39 ack data: 0x93 0x00 
write to 0x08 ack data: 0xF4 
read to 0x08 ack data: 0x0D
write to 0x08 ack data: 0xF4 0x0C 
write to 0x39 ack data: 0x93 
read to 0x39 ack data: 0x00
write to 0x08 ack data: 0xF5 
read to 0x08 ack data: 0x60
write to 0x08 ack data: 0xF4 
read to 0x08 ack data: 0x0C
write to 0x08 ack data: 0xF4 0x0D 
write to 0x08 ack data: 0xF4 
read to 0x08 ack data: 0x0D
write to 0x08 ack data: 0xF4 0x0C 
write to 0x08 ack data: 0xF5 
read to 0x08 ack data: 0x60
write to 0x08 ack data: 0xF4 
read to 0x08 ack data: 0x0C
write to 0x08 ack data: 0xF4 0x0D 
write to 0x08 ack data: 0xF4 
read to 0x08 ack data: 0x0D
write to 0x08 ack data: 0xF4 0x0C 
write to 0x08 ack data: 0xF1 
read to 0x08 ack data: 0x62
write to 0x08 ack data: 0xF5 
read to 0x08 ack data: 0x10
write to 0x08 ack data: 0xF4 
read to 0x08 ack data: 0x0C
write to 0x08 ack data: 0xF4 0x0D 
write to 0x08 ack data: 0xF4 
read to 0x08 ack data: 0x0D
write to 0x08 ack data: 0xF4 0x0C 
write to 0x08 ack data: 0xF5 
read to 0x08 ack data: 0x10
write to 0x39 ack data: 0x93 
read to 0x39 ack data: 0x10
write to 0x08 ack data: 0xF4 
read to 0x08 ack data: 0x0C
write to 0x39 ack data: 0x93 0x10 
write to 0x39 ack data: 0x93 
read to 0x39 ack data: 0x00
write to 0x08 ack data: 0xF4 0x0D 
write to 0x39 ack data: 0x94 
read to 0x39 ack data: 0xC9 0x58 0xC8 0x10
write to 0x39 ack data: 0x93 0x00 
write to 0x08 ack data: 0xF4 
read to 0x08 ack data: 0x0D
write to 0x08 ack data: 0xF4 0x0C 
write to 0x39 ack data: 0x93 
read to 0x39 ack data: 0x00
write to 0x08 ack data: 0xF5 
read to 0x08 ack data: 0x60
write to 0x08 ack data: 0xF4 
read to 0x08 ack data: 0x0C
write to 0x08 ack data: 0xF4 0x0D 
write to 0x08 ack data: 0xF4 
read to 0x08 ack data: 0x0D
write to 0x08 ack data: 0xF4 0x0C 
write to 0x08 ack data: 0xF5 
read to 0x08 ack data: 0x60
write to 0x08 ack data: 0xF4 
read to 0x08 ack data: 0x0C
write to 0x08 ack data: 0xF4 0x0D 
write to 0x08 ack data: 0xF4 
read to 0x08 ack data: 0x0D
write to 0x08 ack data: 0xF4 0x0C 
write to 0x08 ack data: 0xF1 
read to 0x08 ack data: 0x62
write to 0x08 ack data: 0xF5 
read to 0x08 ack data: 0x10
write to 0x08 ack data: 0xF4 
read to 0x08 ack data: 0x0C
write to 0x08 ack data: 0xF4 0x0D 
write to 0x08 ack data: 0xF4 
read to 0x08 ack data: 0x0D
write to 0x08 ack data: 0xF4 0x0C 
write to 0x08 ack data: 0xF5 
read to 0x08 ack data: 0x10
write to 0x39 ack data: 0x93 
read to 0x39 ack data: 0x10
write to 0x08 ack data: 0xF4 
read to 0x08 ack data: 0x0C
write to 0x39 ack data: 0x93 0x10 
write to 0x39 ack data: 0x93 
read to 0x39 ack data: 0x00
write to 0x08 ack data: 0xF4 0x0D 
write to 0x39 ack data: 0x94 
read to 0x39 ack data: 0xD1 0x58 0xCB 0x10
write to 0x39 ack data: 0x93 0x00 
write to 0x08 ack data: 0xF4 
read to 0x08 ack data: 0x0D
write to 0x08 ack data: 0xF4 0x0C 
write to 0x39 ack data: 0x93 
read to 0x39 ack data: 0x00
write to 0x08 ack data: 0xF5 
read to 0x08 ack data: 0x60
write to 0x08 ack data: 0xF4 
read to 0x08 ack data: 0x0C
write to 0x08 ack data: 0xF4 0x0D 
write to 0x08 ack data: 0xF4 
read to 0x08 ack data: 0x0D
write to 0x08 ack data: 0xF4 0x0C 
write to 0x08 ack data: 0xF5 
read to 0x08 ack data: 0x60
write to 0x08 ack data: 0xF4 
read to 0x08 ack data: 0x0C
write to 0x08 ack data: 0xF4 0x0D 
write to 0x08 ack data: 0xF4 
read to 0x08 ack data: 0x0D
write to 0x08 ack data: 0xF4 0x0C 
write to 0x08 ack data: 0xF1 
read to 0x08 ack data: 0x62
write to 0x08 ack data: 0xF5 
read to 0x08 ack data: 0x10
write to 0x08 ack data: 0xF4 
read to 0x08 ack data: 0x0C
write to 0x08 ack data: 0xF4 0x0D 
write to 0x08 ack data: 0xF4 
read to 0x08 ack data: 0x0D
write to 0x08 ack data: 0xF4 0x0C 
write to 0x08 ack data: 0xF5 
read to 0x08 ack data: 0x10
write to 0x39 ack data: 0x93 
read to 0x39 ack data: 0x10
write to 0x39 ack data: 0x93 0x10 
write to 0x08 ack data: 0xF4 
read to 0x08 ack data: 0x0C
write to 0x39 ack data: 0x93 
read to 0x39 ack data: 0x00
write to 0x08 ack data: 0xF4 0x0D 
write to 0x39 ack data: 0x94 
read to 0x39 ack data: 0xC3 0x58 0xC6 0x10
write to 0x39 ack data: 0x93 0x00 
write to 0x08 ack data: 0xF4 
read to 0x08 ack data: 0x0D
write to 0x08 ack data: 0xF4 0x0C 
write to 0x39 ack data: 0x93 
read to 0x39 ack data: 0x00
write to 0x08 ack data: 0xF5 
read to 0x08 ack data: 0x60
write to 0x08 ack data: 0xF4 
read to 0x08 ack data: 0x0C
write to 0x08 ack data: 0xF4 0x0D 
write to 0x08 ack data: 0xF4 
read to 0x08 ack data: 0x0D
write to 0x08 ack data: 0xF4 0x0C 
write to 0x08 ack data: 0xF5 
read to 0x08 ack data: 0x60
write to 0x08 ack data: 0xF4 
read to 0x08 ack data: 0x0C
write to 0x08 ack data: 0xF4 0x0D 
write to 0x08 ack data: 0xF4 
read to 0x08 ack data: 0x0D
write to 0x08 ack data: 0xF4 0x0C 
write to 0x08 ack data: 0xF1 
read to 0x08 ack data: 0x62
write to 0x08 ack data: 0xF5 
read to 0x08 ack data: 0x10
write to 0x08 ack data: 0xF4 
read to 0x08 ack data: 0x0C
write to 0x08 ack data: 0xF4 0x0D 
write to 0x08 ack data: 0xF4 
read to 0x08 ack data: 0x0D
write to 0x08 ack data: 0xF4 0x0C 
write to 0x08 ack data: 0xF5 
read to 0x08 ack data: 0x10
write to 0x39 ack data: 0x93 
read to 0x39 ack data: 0x10
write to 0x39 ack data: 0x93 0x10 
write to 0x08 ack data: 0xF4 
read to 0x08 ack data: 0x0C
write to 0x39 ack data: 0x93 
read to 0x39 ack data: 0x00
write to 0x08 ack data: 0xF4 0x0D 
write to 0x39 ack data: 0x94 
read to 0x39 ack data: 0xE9 0x58 0xD0 0x10
write to 0x39 ack data: 0x93 0x00 
write to 0x39 ack data: 0x80 0x00 
write to 0x08 ack data: 0xF4 
read to 0x08 ack data: 0x0D
write to 0x39 ack data: 0x80 0x00 0xF7 0x00 0x64 0x00 0x00 0xFF 0xFF 0x00 0x00 0x00 0x00 0x00 0x80 0x00 0x00 0x01 0x00 0x00 0x00 0x00 0x00 0x00 0x00 0x00 0x00 0x00 0x00 0x00 0x00 0x00 0x04 
write to 0x08 ack data: 0xF4 0x0C 
write to 0x39 ack data: 0xD6 0x40 
write to 0x39 ack data: 0x93 
read to 0x39 ack data: 0x00
write to 0x39 ack data: 0x80 0x01 
write to 0x39 ack data: 0x80 0x0B 
write to 0x39 ack data: 0x80 0x00 
write to 0x39 ack data: 0x80 0x00 0xF7 0x00 0x64 0x04 0x50 0xFF 0xFF 0x00 0x00 0x00 0x00 0x00 0x80 0x00 0x00 0x01 0x00 0x00 0x00 0x00 0x00 0x00 0x00 0x00 0x00 0x00 0x00 0x00 0x00 0x00 0x04 
write to 0x39 ack data: 0xD6 0x40 
write to 0x39 ack data: 0x80 0x01 
write to 0x39 ack data: 0x80 0x0B 
write to 0x39 ack data: 0x80 0x00 
write to 0x39 ack data: 0x80 0x00 0xF7 0x00 0x64 0x04 0x50 0xCD 0x61 0x00 0x00 0x00 0x00 0x00 0x80 0x00 0x00 0x01 0x00 0x00 0x00 0x00 0x00 0x00 0x00 0x00 0x00 0x00 0x00 0x00 0x00 0x00 0x04 
write to 0x39 ack data: 0xD6 0x40 
write to 0x39 ack data: 0x80 0x01 
write to 0x39 ack data: 0x80 0x0B 
write to 0x39 ack data: 0x80 0x00 
write to 0x39 ack data: 0x80 0x00 0xF7 0x00 0x64 0x04 0x50 0xCD 0x61 0x00 0x00 0x00 0x00 0x04 0x80 0x00 0x00 0x01 0x00 0x00 0x00 0x00 0x00 0x00 0x00 0x00 0x00 0x00 0x00 0x00 0x00 0x00 0x04 
write to 0x39 ack data: 0xD6 0x40 
write to 0x39 ack data: 0x80 0x01 
write to 0x39 ack data: 0x80 0x0B 
write to 0x39 ack data: 0x80 0x00 
write to 0x39 ack data: 0x80 0x00 0xF7 0x00 0x64 0x04 0x50 0xCD 0x61 0x00 0x00 0x00 0x00 0x04 0x80 0x00 0x00 0x01 0x00 0x00 0x00 0x00 0x00 0x00 0x00 0x00 0x00 0x00 0x00 0x00 0x00 0x00 0x04 
write to 0x39 ack data: 0xD6 0x40 
write to 0x39 ack data: 0x80 0x01 
write to 0x39 ack data: 0x80 0x03 
write to 0x39 ack data: 0x80 0x00 
write to 0x39 ack data: 0x80 0x00 0xF7 0x00 0x64 0x04 0x50 0xCD 0x61 0x00 0x00 0x00 0x00 0x04 0x80 0x00 0x00 0x01 0x00 0x00 0x00 0x00 0x00 0x00 0x00 0x00 0x00 0x00 0x00 0x00 0x00 0x00 0x04 
write to 0x39 ack data: 0xDD 0x10 
write to 0x39 ack data: 0x93 
read to 0x39 ack data: 0x00
write to 0x39 ack data: 0x93 0x00 
write to 0x39 ack data: 0xD6 0x40 
write to 0x39 ack data: 0x80 0x01 
write to 0x39 ack data: 0x80 0x03 
write to 0x08 ack data: 0xF5 
read to 0x08 ack data: 0x60
write to 0x08 ack data: 0xF4 
read to 0x08 ack data: 0x0C
write to 0x08 ack data: 0xF4 0x0D 
write to 0x08 ack data: 0xF4 
read to 0x08 ack data: 0x0D
write to 0x08 ack data: 0xF4 0x0C 
write to 0x08 ack data: 0xF5 
read to 0x08 ack data: 0x60
write to 0x08 ack data: 0xF4 
read to 0x08 ack data: 0x0C
write to 0x08 ack data: 0xF4 0x0D 
write to 0x08 ack data: 0xF4 
read to 0x08 ack data: 0x0D
write to 0x08 ack data: 0xF4 0x0C 
write to 0x08 ack data: 0xF1 
read to 0x08 ack data: 0x62
write to 0x10 ack data: 0x08 0x0D 
write to 0x10 ack data: 0x0B 0x27 
write to 0x10 ack data: 0x0D 0x63 
write to 0x10 ack data: 0x01 0x8F 
write to 0x10 ack data: 0x02 0x0F 
write to 0x10 ack data: 0x03 0x0F 
write to 0x10 ack data: 0x01 0xCF 
